Sample in Buffer,Sample in Window,TRIGGER,staged_mac_bd_i/system_ila_0/inst/net_slot_0_axis_tdata[31:0],staged_mac_bd_i/system_ila_0/inst/net_slot_0_axis_tid[7:0],staged_mac_bd_i/system_ila_0/inst/net_slot_0_axis_tvalid,staged_mac_bd_i/system_ila_0/inst/net_slot_0_axis_tready,staged_mac_bd_i/system_ila_0/inst/net_slot_0_axis_tlast,staged_mac_bd_i/system_ila_0/inst/net_slot_1_axis_tdata[31:0],staged_mac_bd_i/system_ila_0/inst/net_slot_1_axis_tid[7:0],staged_mac_bd_i/system_ila_0/inst/net_slot_1_axis_tvalid,staged_mac_bd_i/system_ila_0/inst/net_slot_1_axis_tready,staged_mac_bd_i/system_ila_0/inst/net_slot_1_axis_tlast,Interface_(i1:s0)_(axi_fifo_mm_s_0_AXI_STR_TXD)[2:0],Interface_(i1:s1)_(piped_mac_0_MO_AXIS)[2:0],T_Channel_(i1:s0)_(axi_fifo_mm_s_0_AXI_STR_TXD)[2:0],T_Channel_(i1:s1)_(piped_mac_0_MO_AXIS)[2:0]
Radix - UNSIGNED,UNSIGNED,UNSIGNED,HEX,HEX,HEX,HEX,HEX,HEX,HEX,HEX,HEX,HEX,HEX,HEX,HEX,HEX
0,0,0,be27eb3d,00,0,1,0,00000000,00,0,1,0,"_","_","_","_"
1,1,0,be27eb3d,00,0,1,0,00000000,00,0,1,0,"_","_","_","_"
2,2,0,be27eb3d,00,0,1,0,00000000,00,0,1,0,"_","_","_","_"
3,3,0,be27eb3d,00,0,1,0,00000000,00,0,1,0,"_","_","_","_"
4,4,0,be27eb3d,00,0,1,0,00000000,00,0,1,0,"_","_","_","_"
5,5,0,be27eb3d,00,0,1,0,00000000,00,0,1,0,"_","_","_","_"
6,6,0,be27eb3d,00,0,1,0,00000000,00,0,1,0,"_","_","_","_"
7,7,0,be27eb3d,00,0,1,0,00000000,00,0,1,0,"_","_","_","_"
8,8,0,3ca0a0a1,00,1,1,0,00000000,00,0,1,0,"Active","_","Stream Beat","_"
9,9,0,3ca0a0a1,00,0,0,0,00000000,00,0,1,0,"_","_","_","_"
10,10,0,3ca0a0a1,00,0,0,0,00000000,00,0,1,0,"_","_","_","_"
11,11,0,3ca0a0a1,00,0,0,0,00000000,00,0,1,0,"_","_","_","_"
12,12,0,3ca0a0a1,00,0,0,0,00000000,00,0,1,0,"_","_","_","_"
13,13,0,3ca0a0a1,00,0,0,0,00000000,00,0,1,0,"_","_","_","_"
14,14,0,3ca0a0a1,00,0,0,0,00000000,00,0,1,0,"_","_","_","_"
15,15,0,3ca0a0a1,00,0,0,0,00000000,00,0,1,0,"_","_","_","_"
16,16,0,3ca0a0a1,00,0,0,0,00000000,00,0,1,0,"_","_","_","_"
17,17,0,3ca0a0a1,00,0,0,0,00000000,00,0,1,0,"_","_","_","_"
18,18,0,3ca0a0a1,00,0,0,0,00000000,00,0,1,0,"_","_","_","_"
19,19,0,3ca0a0a1,00,0,0,0,00000000,00,0,1,0,"_","_","_","_"
20,20,0,3ca0a0a1,00,0,0,0,00000000,00,0,1,0,"_","_","_","_"
21,21,0,3ca0a0a1,00,0,0,0,00000000,00,0,1,0,"_","_","_","_"
22,22,0,3ca0a0a1,00,0,0,0,00000000,00,0,1,0,"_","_","_","_"
23,23,0,3ca0a0a1,00,0,0,0,00000000,00,0,1,0,"_","_","_","_"
24,24,0,3ca0a0a1,00,0,0,0,00000000,00,0,1,0,"_","_","_","_"
25,25,0,3ca0a0a1,00,0,0,0,00000000,00,0,1,0,"_","_","_","_"
26,26,0,3ca0a0a1,00,0,0,0,00000000,00,0,1,0,"_","_","_","_"
27,27,0,3ca0a0a1,00,0,1,0,00000000,00,0,1,0,"_","_","_","_"
28,28,0,3df51172,00,1,1,0,00000000,00,0,1,0,"Active","_","Stream Beat","_"
29,29,0,3df51172,00,0,1,0,00000000,00,0,1,0,"_","_","_","_"
30,30,0,3df51172,00,0,1,0,00000000,00,0,1,0,"_","_","_","_"
31,31,0,3df51172,00,0,1,0,00000000,00,0,1,0,"_","_","_","_"
32,32,0,3df51172,00,0,1,0,00000000,00,0,1,0,"_","_","_","_"
33,33,0,3df51172,00,0,1,0,00000000,00,0,1,0,"_","_","_","_"
34,34,0,3df51172,00,0,1,0,00000000,00,0,1,0,"_","_","_","_"
35,35,0,3df51172,00,0,1,0,00000000,00,0,1,0,"_","_","_","_"
36,36,0,3df51172,00,0,1,0,00000000,00,0,1,0,"_","_","_","_"
37,37,0,3df51172,00,0,1,0,00000000,00,0,1,0,"_","_","_","_"
38,38,0,3df51172,00,0,1,0,00000000,00,0,1,0,"_","_","_","_"
39,39,0,3df51172,00,0,1,0,00000000,00,0,1,0,"_","_","_","_"
40,40,0,3df51172,00,0,1,0,00000000,00,0,1,0,"_","_","_","_"
41,41,0,3df51172,00,0,1,0,00000000,00,0,1,0,"_","_","_","_"
42,42,0,3df51172,00,0,1,0,00000000,00,0,1,0,"_","_","_","_"
43,43,0,3df51172,00,0,1,0,00000000,00,0,1,0,"_","_","_","_"
44,44,0,3df51172,00,0,1,0,00000000,00,0,1,0,"_","_","_","_"
45,45,0,3df51172,00,0,1,0,00000000,00,0,1,0,"_","_","_","_"
46,46,0,3df51172,00,0,1,0,00000000,00,0,1,0,"_","_","_","_"
47,47,0,3df51172,00,0,1,0,00000000,00,0,1,0,"_","_","_","_"
48,48,0,3df51172,00,0,1,0,00000000,00,0,1,0,"_","_","_","_"
49,49,0,3df51172,00,0,1,0,00000000,00,0,1,0,"_","_","_","_"
50,50,0,3df51172,00,0,1,0,00000000,00,0,1,0,"_","_","_","_"
51,51,0,3df51172,00,0,1,0,00000000,00,0,1,0,"_","_","_","_"
52,52,0,3df51172,00,0,1,0,00000000,00,0,1,0,"_","_","_","_"
53,53,0,3df51172,00,0,1,0,00000000,00,0,1,0,"_","_","_","_"
54,54,0,3e149495,00,1,1,0,00000000,00,0,1,0,"Active","_","Stream Beat","_"
55,55,0,3e149495,00,0,0,0,00000000,00,0,1,0,"_","_","_","_"
56,56,0,3e149495,00,0,0,0,00000000,00,0,1,0,"_","_","_","_"
57,57,0,3e149495,00,0,0,0,00000000,00,0,1,0,"_","_","_","_"
58,58,0,3e149495,00,0,0,0,00000000,00,0,1,0,"_","_","_","_"
59,59,0,3e149495,00,0,0,0,00000000,00,0,1,0,"_","_","_","_"
60,60,0,3e149495,00,0,0,0,00000000,00,0,1,0,"_","_","_","_"
61,61,0,3e149495,00,0,0,0,00000000,00,0,1,0,"_","_","_","_"
62,62,0,3e149495,00,0,0,0,00000000,00,0,1,0,"_","_","_","_"
63,63,0,3e149495,00,0,0,0,00000000,00,0,1,0,"_","_","_","_"
64,64,0,3e149495,00,0,0,0,00000000,00,0,1,0,"_","_","_","_"
65,65,0,3e149495,00,0,0,0,00000000,00,0,1,0,"_","_","_","_"
66,66,0,3e149495,00,0,0,0,00000000,00,0,1,0,"_","_","_","_"
67,67,0,3e149495,00,0,0,0,00000000,00,0,1,0,"_","_","_","_"
68,68,0,3e149495,00,0,0,0,00000000,00,0,1,0,"_","_","_","_"
69,69,0,3e149495,00,0,0,0,00000000,00,0,1,0,"_","_","_","_"
70,70,0,3e149495,00,0,0,0,00000000,00,0,1,0,"_","_","_","_"
71,71,0,3e149495,00,0,0,0,00000000,00,0,1,0,"_","_","_","_"
72,72,0,3e149495,00,0,0,0,00000000,00,0,1,0,"_","_","_","_"
73,73,0,3e149495,00,0,1,0,00000000,00,0,1,0,"_","_","_","_"
74,74,0,3d37d869,00,1,1,0,00000000,00,0,1,0,"Active","_","Stream Beat","_"
75,75,0,3d37d869,00,0,1,0,00000000,00,0,1,0,"_","_","_","_"
76,76,0,3d37d869,00,0,1,0,00000000,00,0,1,0,"_","_","_","_"
77,77,0,3d37d869,00,0,1,0,00000000,00,0,1,0,"_","_","_","_"
78,78,0,3d37d869,00,0,1,0,00000000,00,0,1,0,"_","_","_","_"
79,79,0,3d37d869,00,0,1,0,00000000,00,0,1,0,"_","_","_","_"
80,80,0,3d37d869,00,0,1,0,00000000,00,0,1,0,"_","_","_","_"
81,81,0,3d37d869,00,0,1,0,00000000,00,0,1,0,"_","_","_","_"
82,82,0,3d37d869,00,0,1,0,00000000,00,0,1,0,"_","_","_","_"
83,83,0,3d37d869,00,0,1,0,00000000,00,0,1,0,"_","_","_","_"
84,84,0,3d37d869,00,0,1,0,00000000,00,0,1,0,"_","_","_","_"
85,85,0,3d37d869,00,0,1,0,00000000,00,0,1,0,"_","_","_","_"
86,86,0,3d37d869,00,0,1,0,00000000,00,0,1,0,"_","_","_","_"
87,87,0,3d37d869,00,0,1,0,00000000,00,0,1,0,"_","_","_","_"
88,88,0,3d37d869,00,0,1,0,00000000,00,0,1,0,"_","_","_","_"
89,89,0,3d37d869,00,0,1,0,00000000,00,0,1,0,"_","_","_","_"
90,90,0,3d37d869,00,0,1,0,00000000,00,0,1,0,"_","_","_","_"
91,91,0,3d37d869,00,0,1,0,00000000,00,0,1,0,"_","_","_","_"
92,92,0,3d37d869,00,0,1,0,00000000,00,0,1,0,"_","_","_","_"
93,93,0,3d37d869,00,0,1,0,00000000,00,0,1,0,"_","_","_","_"
94,94,0,3d37d869,00,0,1,0,00000000,00,0,1,0,"_","_","_","_"
95,95,0,3d37d869,00,0,1,0,00000000,00,0,1,0,"_","_","_","_"
96,96,0,3d37d869,00,0,1,0,00000000,00,0,1,0,"_","_","_","_"
97,97,0,3d37d869,00,0,1,0,00000000,00,0,1,0,"_","_","_","_"
98,98,0,3e1c9c9d,00,1,1,0,00000000,00,0,1,0,"Active","_","Stream Beat","_"
99,99,0,3e1c9c9d,00,0,0,0,00000000,00,0,1,0,"_","_","_","_"
100,100,0,3e1c9c9d,00,0,0,0,00000000,00,0,1,0,"_","_","_","_"
101,101,0,3e1c9c9d,00,0,0,0,00000000,00,0,1,0,"_","_","_","_"
102,102,0,3e1c9c9d,00,0,0,0,00000000,00,0,1,0,"_","_","_","_"
103,103,0,3e1c9c9d,00,0,0,0,00000000,00,0,1,0,"_","_","_","_"
104,104,0,3e1c9c9d,00,0,0,0,00000000,00,0,1,0,"_","_","_","_"
105,105,0,3e1c9c9d,00,0,0,0,00000000,00,0,1,0,"_","_","_","_"
106,106,0,3e1c9c9d,00,0,0,0,00000000,00,0,1,0,"_","_","_","_"
107,107,0,3e1c9c9d,00,0,0,0,00000000,00,0,1,0,"_","_","_","_"
108,108,0,3e1c9c9d,00,0,0,0,00000000,00,0,1,0,"_","_","_","_"
109,109,0,3e1c9c9d,00,0,0,0,00000000,00,0,1,0,"_","_","_","_"
110,110,0,3e1c9c9d,00,0,0,0,00000000,00,0,1,0,"_","_","_","_"
111,111,0,3e1c9c9d,00,0,0,0,00000000,00,0,1,0,"_","_","_","_"
112,112,0,3e1c9c9d,00,0,0,0,00000000,00,0,1,0,"_","_","_","_"
113,113,0,3e1c9c9d,00,0,0,0,00000000,00,0,1,0,"_","_","_","_"
114,114,0,3e1c9c9d,00,0,0,0,00000000,00,0,1,0,"_","_","_","_"
115,115,0,3e1c9c9d,00,0,0,0,00000000,00,0,1,0,"_","_","_","_"
116,116,0,3e1c9c9d,00,0,0,0,00000000,00,0,1,0,"_","_","_","_"
117,117,0,3e1c9c9d,00,0,1,0,00000000,00,0,1,0,"_","_","_","_"
118,118,0,bdbc6cdb,00,1,1,0,00000000,00,0,1,0,"Active","_","Stream Beat","_"
119,119,0,bdbc6cdb,00,0,1,0,00000000,00,0,1,0,"_","_","_","_"
120,120,0,bdbc6cdb,00,0,1,0,00000000,00,0,1,0,"_","_","_","_"
121,121,0,bdbc6cdb,00,0,1,0,00000000,00,0,1,0,"_","_","_","_"
122,122,0,bdbc6cdb,00,0,1,0,00000000,00,0,1,0,"_","_","_","_"
123,123,0,bdbc6cdb,00,0,1,0,00000000,00,0,1,0,"_","_","_","_"
124,124,0,bdbc6cdb,00,0,1,0,00000000,00,0,1,0,"_","_","_","_"
125,125,0,bdbc6cdb,00,0,1,0,00000000,00,0,1,0,"_","_","_","_"
126,126,0,bdbc6cdb,00,0,1,0,00000000,00,0,1,0,"_","_","_","_"
127,127,0,bdbc6cdb,00,0,1,0,00000000,00,0,1,0,"_","_","_","_"
128,128,0,bdbc6cdb,00,0,1,0,00000000,00,0,1,0,"_","_","_","_"
129,129,0,bdbc6cdb,00,0,1,0,00000000,00,0,1,0,"_","_","_","_"
130,130,0,bdbc6cdb,00,0,1,0,00000000,00,0,1,0,"_","_","_","_"
131,131,0,bdbc6cdb,00,0,1,0,00000000,00,0,1,0,"_","_","_","_"
132,132,0,bdbc6cdb,00,0,1,0,00000000,00,0,1,0,"_","_","_","_"
133,133,0,bdbc6cdb,00,0,1,0,00000000,00,0,1,0,"_","_","_","_"
134,134,0,bdbc6cdb,00,0,1,0,00000000,00,0,1,0,"_","_","_","_"
135,135,0,bdbc6cdb,00,0,1,0,00000000,00,0,1,0,"_","_","_","_"
136,136,0,bdbc6cdb,00,0,1,0,00000000,00,0,1,0,"_","_","_","_"
137,137,0,bdbc6cdb,00,0,1,0,00000000,00,0,1,0,"_","_","_","_"
138,138,0,bdbc6cdb,00,0,1,0,00000000,00,0,1,0,"_","_","_","_"
139,139,0,bdbc6cdb,00,0,1,0,00000000,00,0,1,0,"_","_","_","_"
140,140,0,bdbc6cdb,00,0,1,0,00000000,00,0,1,0,"_","_","_","_"
141,141,0,bdbc6cdb,00,0,1,0,00000000,00,0,1,0,"_","_","_","_"
142,142,0,bdbc6cdb,00,0,1,0,00000000,00,0,1,0,"_","_","_","_"
143,143,0,3d989899,00,1,1,0,00000000,00,0,1,0,"Active","_","Stream Beat","_"
144,144,0,3d989899,00,0,0,0,00000000,00,0,1,0,"_","_","_","_"
145,145,0,3d989899,00,0,0,0,00000000,00,0,1,0,"_","_","_","_"
146,146,0,3d989899,00,0,0,0,00000000,00,0,1,0,"_","_","_","_"
147,147,0,3d989899,00,0,0,0,00000000,00,0,1,0,"_","_","_","_"
148,148,0,3d989899,00,0,0,0,00000000,00,0,1,0,"_","_","_","_"
149,149,0,3d989899,00,0,0,0,00000000,00,0,1,0,"_","_","_","_"
150,150,0,3d989899,00,0,0,0,00000000,00,0,1,0,"_","_","_","_"
151,151,0,3d989899,00,0,0,0,00000000,00,0,1,0,"_","_","_","_"
152,152,0,3d989899,00,0,0,0,00000000,00,0,1,0,"_","_","_","_"
153,153,0,3d989899,00,0,0,0,00000000,00,0,1,0,"_","_","_","_"
154,154,0,3d989899,00,0,0,0,00000000,00,0,1,0,"_","_","_","_"
155,155,0,3d989899,00,0,0,0,00000000,00,0,1,0,"_","_","_","_"
156,156,0,3d989899,00,0,0,0,00000000,00,0,1,0,"_","_","_","_"
157,157,0,3d989899,00,0,0,0,00000000,00,0,1,0,"_","_","_","_"
158,158,0,3d989899,00,0,0,0,00000000,00,0,1,0,"_","_","_","_"
159,159,0,3d989899,00,0,0,0,00000000,00,0,1,0,"_","_","_","_"
160,160,0,3d989899,00,0,0,0,00000000,00,0,1,0,"_","_","_","_"
161,161,0,3d989899,00,0,0,0,00000000,00,0,1,0,"_","_","_","_"
162,162,0,3d989899,00,0,1,0,00000000,00,0,1,0,"_","_","_","_"
163,163,0,3d811564,00,1,1,0,00000000,00,0,1,0,"Active","_","Stream Beat","_"
164,164,0,3d811564,00,0,1,0,00000000,00,0,1,0,"_","_","_","_"
165,165,0,3d811564,00,0,1,0,00000000,00,0,1,0,"_","_","_","_"
166,166,0,3d811564,00,0,1,0,00000000,00,0,1,0,"_","_","_","_"
167,167,0,3d811564,00,0,1,0,00000000,00,0,1,0,"_","_","_","_"
168,168,0,3d811564,00,0,1,0,00000000,00,0,1,0,"_","_","_","_"
169,169,0,3d811564,00,0,1,0,00000000,00,0,1,0,"_","_","_","_"
170,170,0,3d811564,00,0,1,0,00000000,00,0,1,0,"_","_","_","_"
171,171,0,3d811564,00,0,1,0,00000000,00,0,1,0,"_","_","_","_"
172,172,0,3d811564,00,0,1,0,00000000,00,0,1,0,"_","_","_","_"
173,173,0,3d811564,00,0,1,0,00000000,00,0,1,0,"_","_","_","_"
174,174,0,3d811564,00,0,1,0,00000000,00,0,1,0,"_","_","_","_"
175,175,0,3d811564,00,0,1,0,00000000,00,0,1,0,"_","_","_","_"
176,176,0,3d811564,00,0,1,0,00000000,00,0,1,0,"_","_","_","_"
177,177,0,3d811564,00,0,1,0,00000000,00,0,1,0,"_","_","_","_"
178,178,0,3d811564,00,0,1,0,00000000,00,0,1,0,"_","_","_","_"
179,179,0,3d811564,00,0,1,0,00000000,00,0,1,0,"_","_","_","_"
180,180,0,3d811564,00,0,1,0,00000000,00,0,1,0,"_","_","_","_"
181,181,0,3d811564,00,0,1,0,00000000,00,0,1,0,"_","_","_","_"
182,182,0,3d811564,00,0,1,0,00000000,00,0,1,0,"_","_","_","_"
183,183,0,3d811564,00,0,1,0,00000000,00,0,1,0,"_","_","_","_"
184,184,0,3d811564,00,0,1,0,00000000,00,0,1,0,"_","_","_","_"
185,185,0,3d811564,00,0,1,0,00000000,00,0,1,0,"_","_","_","_"
186,186,0,3d811564,00,0,1,0,00000000,00,0,1,0,"_","_","_","_"
187,187,0,3d811564,00,0,1,0,00000000,00,0,1,0,"_","_","_","_"
188,188,0,3ca0a0a1,00,1,1,0,00000000,00,0,1,0,"Active","_","Stream Beat","_"
189,189,0,3ca0a0a1,00,0,0,0,00000000,00,0,1,0,"_","_","_","_"
190,190,0,3ca0a0a1,00,0,0,0,00000000,00,0,1,0,"_","_","_","_"
191,191,0,3ca0a0a1,00,0,0,0,00000000,00,0,1,0,"_","_","_","_"
192,192,0,3ca0a0a1,00,0,0,0,00000000,00,0,1,0,"_","_","_","_"
193,193,0,3ca0a0a1,00,0,0,0,00000000,00,0,1,0,"_","_","_","_"
194,194,0,3ca0a0a1,00,0,0,0,00000000,00,0,1,0,"_","_","_","_"
195,195,0,3ca0a0a1,00,0,0,0,00000000,00,0,1,0,"_","_","_","_"
196,196,0,3ca0a0a1,00,0,0,0,00000000,00,0,1,0,"_","_","_","_"
197,197,0,3ca0a0a1,00,0,0,0,00000000,00,0,1,0,"_","_","_","_"
198,198,0,3ca0a0a1,00,0,0,0,00000000,00,0,1,0,"_","_","_","_"
199,199,0,3ca0a0a1,00,0,0,0,00000000,00,0,1,0,"_","_","_","_"
200,200,0,3ca0a0a1,00,0,0,0,00000000,00,0,1,0,"_","_","_","_"
201,201,0,3ca0a0a1,00,0,0,0,00000000,00,0,1,0,"_","_","_","_"
202,202,0,3ca0a0a1,00,0,0,0,00000000,00,0,1,0,"_","_","_","_"
203,203,0,3ca0a0a1,00,0,0,0,00000000,00,0,1,0,"_","_","_","_"
204,204,0,3ca0a0a1,00,0,0,0,00000000,00,0,1,0,"_","_","_","_"
205,205,0,3ca0a0a1,00,0,0,0,00000000,00,0,1,0,"_","_","_","_"
206,206,0,3ca0a0a1,00,0,0,0,00000000,00,0,1,0,"_","_","_","_"
207,207,0,3ca0a0a1,00,0,1,0,00000000,00,0,1,0,"_","_","_","_"
208,208,0,3d543698,00,1,1,0,00000000,00,0,1,0,"Active","_","Stream Beat","_"
209,209,0,3d543698,00,0,1,0,00000000,00,0,1,0,"_","_","_","_"
210,210,0,3d543698,00,0,1,0,00000000,00,0,1,0,"_","_","_","_"
211,211,0,3d543698,00,0,1,0,00000000,00,0,1,0,"_","_","_","_"
212,212,0,3d543698,00,0,1,0,00000000,00,0,1,0,"_","_","_","_"
213,213,0,3d543698,00,0,1,0,00000000,00,0,1,0,"_","_","_","_"
214,214,0,3d543698,00,0,1,0,00000000,00,0,1,0,"_","_","_","_"
215,215,0,3d543698,00,0,1,0,00000000,00,0,1,0,"_","_","_","_"
216,216,0,3d543698,00,0,1,0,00000000,00,0,1,0,"_","_","_","_"
217,217,0,3d543698,00,0,1,0,00000000,00,0,1,0,"_","_","_","_"
218,218,0,3d543698,00,0,1,0,00000000,00,0,1,0,"_","_","_","_"
219,219,0,3d543698,00,0,1,0,00000000,00,0,1,0,"_","_","_","_"
220,220,0,3d543698,00,0,1,0,00000000,00,0,1,0,"_","_","_","_"
221,221,0,3d543698,00,0,1,0,00000000,00,0,1,0,"_","_","_","_"
222,222,0,3d543698,00,0,1,0,00000000,00,0,1,0,"_","_","_","_"
223,223,0,3d543698,00,0,1,0,00000000,00,0,1,0,"_","_","_","_"
224,224,0,3d543698,00,0,1,0,00000000,00,0,1,0,"_","_","_","_"
225,225,0,3d543698,00,0,1,0,00000000,00,0,1,0,"_","_","_","_"
226,226,0,3d543698,00,0,1,0,00000000,00,0,1,0,"_","_","_","_"
227,227,0,3d543698,00,0,1,0,00000000,00,0,1,0,"_","_","_","_"
228,228,0,3d543698,00,0,1,0,00000000,00,0,1,0,"_","_","_","_"
229,229,0,3d543698,00,0,1,0,00000000,00,0,1,0,"_","_","_","_"
230,230,0,3d543698,00,0,1,0,00000000,00,0,1,0,"_","_","_","_"
231,231,0,3d543698,00,0,1,0,00000000,00,0,1,0,"_","_","_","_"
232,232,0,3d543698,00,0,1,0,00000000,00,0,1,0,"_","_","_","_"
233,233,0,3f0a8a8b,00,1,1,0,00000000,00,0,1,0,"Active","_","Stream Beat","_"
234,234,0,3f0a8a8b,00,0,0,0,00000000,00,0,1,0,"_","_","_","_"
235,235,0,3f0a8a8b,00,0,0,0,00000000,00,0,1,0,"_","_","_","_"
236,236,0,3f0a8a8b,00,0,0,0,00000000,00,0,1,0,"_","_","_","_"
237,237,0,3f0a8a8b,00,0,0,0,00000000,00,0,1,0,"_","_","_","_"
238,238,0,3f0a8a8b,00,0,0,0,00000000,00,0,1,0,"_","_","_","_"
239,239,0,3f0a8a8b,00,0,0,0,00000000,00,0,1,0,"_","_","_","_"
240,240,0,3f0a8a8b,00,0,0,0,00000000,00,0,1,0,"_","_","_","_"
241,241,0,3f0a8a8b,00,0,0,0,00000000,00,0,1,0,"_","_","_","_"
242,242,0,3f0a8a8b,00,0,0,0,00000000,00,0,1,0,"_","_","_","_"
243,243,0,3f0a8a8b,00,0,0,0,00000000,00,0,1,0,"_","_","_","_"
244,244,0,3f0a8a8b,00,0,0,0,00000000,00,0,1,0,"_","_","_","_"
245,245,0,3f0a8a8b,00,0,0,0,00000000,00,0,1,0,"_","_","_","_"
246,246,0,3f0a8a8b,00,0,0,0,00000000,00,0,1,0,"_","_","_","_"
247,247,0,3f0a8a8b,00,0,0,0,00000000,00,0,1,0,"_","_","_","_"
248,248,0,3f0a8a8b,00,0,0,0,00000000,00,0,1,0,"_","_","_","_"
249,249,0,3f0a8a8b,00,0,0,0,00000000,00,0,1,0,"_","_","_","_"
250,250,0,3f0a8a8b,00,0,0,0,00000000,00,0,1,0,"_","_","_","_"
251,251,0,3f0a8a8b,00,0,0,0,00000000,00,0,1,0,"_","_","_","_"
252,252,0,3f0a8a8b,00,0,1,0,00000000,00,0,1,0,"_","_","_","_"
253,253,0,bd593fa2,00,1,1,0,00000000,00,0,1,0,"Active","_","Stream Beat","_"
254,254,0,bd593fa2,00,0,1,0,00000000,00,0,1,0,"_","_","_","_"
255,255,0,bd593fa2,00,0,1,0,00000000,00,0,1,0,"_","_","_","_"
256,256,0,bd593fa2,00,0,1,0,00000000,00,0,1,0,"_","_","_","_"
257,257,0,bd593fa2,00,0,1,0,00000000,00,0,1,0,"_","_","_","_"
258,258,0,bd593fa2,00,0,1,0,00000000,00,0,1,0,"_","_","_","_"
259,259,0,bd593fa2,00,0,1,0,00000000,00,0,1,0,"_","_","_","_"
260,260,0,bd593fa2,00,0,1,0,00000000,00,0,1,0,"_","_","_","_"
261,261,0,bd593fa2,00,0,1,0,00000000,00,0,1,0,"_","_","_","_"
262,262,0,bd593fa2,00,0,1,0,00000000,00,0,1,0,"_","_","_","_"
263,263,0,bd593fa2,00,0,1,0,00000000,00,0,1,0,"_","_","_","_"
264,264,0,bd593fa2,00,0,1,0,00000000,00,0,1,0,"_","_","_","_"
265,265,0,bd593fa2,00,0,1,0,00000000,00,0,1,0,"_","_","_","_"
266,266,0,bd593fa2,00,0,1,0,00000000,00,0,1,0,"_","_","_","_"
267,267,0,bd593fa2,00,0,1,0,00000000,00,0,1,0,"_","_","_","_"
268,268,0,bd593fa2,00,0,1,0,00000000,00,0,1,0,"_","_","_","_"
269,269,0,bd593fa2,00,0,1,0,00000000,00,0,1,0,"_","_","_","_"
270,270,0,bd593fa2,00,0,1,0,00000000,00,0,1,0,"_","_","_","_"
271,271,0,bd593fa2,00,0,1,0,00000000,00,0,1,0,"_","_","_","_"
272,272,0,bd593fa2,00,0,1,0,00000000,00,0,1,0,"_","_","_","_"
273,273,0,bd593fa2,00,0,1,0,00000000,00,0,1,0,"_","_","_","_"
274,274,0,bd593fa2,00,0,1,0,00000000,00,0,1,0,"_","_","_","_"
275,275,0,bd593fa2,00,0,1,0,00000000,00,0,1,0,"_","_","_","_"
276,276,0,bd593fa2,00,0,1,0,00000000,00,0,1,0,"_","_","_","_"
277,277,0,bd593fa2,00,0,1,0,00000000,00,0,1,0,"_","_","_","_"
278,278,0,bd593fa2,00,0,1,0,00000000,00,0,1,0,"_","_","_","_"
279,279,0,bd593fa2,00,0,1,0,00000000,00,0,1,0,"_","_","_","_"
280,280,0,3e8c8c8d,00,1,1,0,00000000,00,0,1,0,"Active","_","Stream Beat","_"
281,281,0,3e8c8c8d,00,0,0,0,00000000,00,0,1,0,"_","_","_","_"
282,282,0,3e8c8c8d,00,0,0,0,00000000,00,0,1,0,"_","_","_","_"
283,283,0,3e8c8c8d,00,0,0,0,00000000,00,0,1,0,"_","_","_","_"
284,284,0,3e8c8c8d,00,0,0,0,00000000,00,0,1,0,"_","_","_","_"
285,285,0,3e8c8c8d,00,0,0,0,00000000,00,0,1,0,"_","_","_","_"
286,286,0,3e8c8c8d,00,0,0,0,00000000,00,0,1,0,"_","_","_","_"
287,287,0,3e8c8c8d,00,0,0,0,00000000,00,0,1,0,"_","_","_","_"
288,288,0,3e8c8c8d,00,0,0,0,00000000,00,0,1,0,"_","_","_","_"
289,289,0,3e8c8c8d,00,0,0,0,00000000,00,0,1,0,"_","_","_","_"
290,290,0,3e8c8c8d,00,0,0,0,00000000,00,0,1,0,"_","_","_","_"
291,291,0,3e8c8c8d,00,0,0,0,00000000,00,0,1,0,"_","_","_","_"
292,292,0,3e8c8c8d,00,0,0,0,00000000,00,0,1,0,"_","_","_","_"
293,293,0,3e8c8c8d,00,0,0,0,00000000,00,0,1,0,"_","_","_","_"
294,294,0,3e8c8c8d,00,0,0,0,00000000,00,0,1,0,"_","_","_","_"
295,295,0,3e8c8c8d,00,0,0,0,00000000,00,0,1,0,"_","_","_","_"
296,296,0,3e8c8c8d,00,0,0,0,00000000,00,0,1,0,"_","_","_","_"
297,297,0,3e8c8c8d,00,0,0,0,00000000,00,0,1,0,"_","_","_","_"
298,298,0,3e8c8c8d,00,0,0,0,00000000,00,0,1,0,"_","_","_","_"
299,299,0,3e8c8c8d,00,0,1,0,00000000,00,0,1,0,"_","_","_","_"
300,300,0,bde162a7,00,1,1,0,00000000,00,0,1,0,"Active","_","Stream Beat","_"
301,301,0,bde162a7,00,0,1,0,00000000,00,0,1,0,"_","_","_","_"
302,302,0,bde162a7,00,0,1,0,00000000,00,0,1,0,"_","_","_","_"
303,303,0,bde162a7,00,0,1,0,00000000,00,0,1,0,"_","_","_","_"
304,304,0,bde162a7,00,0,1,0,00000000,00,0,1,0,"_","_","_","_"
305,305,0,bde162a7,00,0,1,0,00000000,00,0,1,0,"_","_","_","_"
306,306,0,bde162a7,00,0,1,0,00000000,00,0,1,0,"_","_","_","_"
307,307,0,bde162a7,00,0,1,0,00000000,00,0,1,0,"_","_","_","_"
